T1DF0 000:028.390   SEGGER J-Link V7.64b Log File
T1DF0 000:028.537   DLL Compiled: Apr  8 2022 15:25:37
T1DF0 000:028.548   Logging started @ 2023-02-24 03:02
T1DF0 000:028.556 - 28.561ms
T1DF0 000:028.570 JLINK_SetWarnOutHandler(...)
T1DF0 000:028.892 - 0.328ms
T1DF0 000:028.907 JLINK_OpenEx(...)
T1DF0 000:041.887   Firmware: J-Link Lite for Ghostyu compiled Jan 8 2018 13:10:00
T1DF0 000:042.550   Firmware: J-Link Lite for Ghostyu compiled Jan 8 2018 13:10:00
T1DF0 000:049.418   Hardware: V1.00
T1DF0 000:049.446   S/N: 180100254
T1DF0 000:049.457   OEM: SEGGER
T1DF0 000:049.467   Feature(s): None
T1DF0 000:052.898   TELNET listener socket opened on port 19021
T1DF0 000:053.134   WEBSRV WEBSRV_Init(): Starting webserver thread(s)
T1DF0 000:053.238   WEBSRV Failed to put socket into listener state (port 19080)
T1DF0 000:053.397   WEBSRV Webserver running on local port 19081
T1DF0 000:069.924 - 41.048ms returns "O.K."
T1DF0 000:070.016 JLINK_GetEmuCaps()
T1DF0 000:070.029 - 0.018ms returns 0xB8EA5A33
T1DF0 000:070.051 JLINK_TIF_GetAvailable(...)
T1DF0 000:070.809 - 0.804ms
T1DF0 000:070.867 JLINK_SetErrorOutHandler(...)
T1DF0 000:070.876 - 0.012ms
T1DF0 000:071.237 JLINK_ExecCommand("ProjectFile = "C:\ING_SDK\app\RSSI_RANGING_916_Central\JLinkSettings.ini"", ...). 
T1DF0 000:091.699   Ref file found at: C:\Keil_v5\ARM\Segger\JLinkDevices.ref
T1DF0 000:092.539   REF file references invalid XML file: C:\Program Files\SEGGER\JLink\JLinkDevices.xml
T1DF0 000:095.335   Device "CORTEX-M4" selected.
T1DF0 000:095.823 - 24.592ms returns 0x00
T1DF0 000:098.076 JLINK_ExecCommand("Device = ing91600", ...). 
T1DF0 000:100.696   Device "CORTEX-M4" selected.
T1DF0 000:101.177 - 3.085ms returns 0x00
T1DF0 000:101.194 JLINK_ExecCommand("DisableConnectionTimeout", ...). 
T1DF0 000:101.206 - 0.005ms returns 0x01
T1DF0 000:101.214 JLINK_GetHardwareVersion()
T1DF0 000:101.220 - 0.009ms returns 10000
T1DF0 000:101.236 JLINK_GetDLLVersion()
T1DF0 000:101.242 - 0.008ms returns 76402
T1DF0 000:101.249 JLINK_GetOEMString(...)
T1DF0 000:101.257 JLINK_GetFirmwareString(...)
T1DF0 000:101.263 - 0.009ms
T1DF0 000:108.918 JLINK_GetDLLVersion()
T1DF0 000:108.942 - 0.027ms returns 76402
T1DF0 000:108.951 JLINK_GetCompileDateTime()
T1DF0 000:108.957 - 0.009ms
T1DF0 000:110.940 JLINK_GetFirmwareString(...)
T1DF0 000:110.962 - 0.025ms
T1DF0 000:112.991 JLINK_GetHardwareVersion()
T1DF0 000:113.012 - 0.024ms returns 10000
T1DF0 000:115.003 JLINK_GetSN()
T1DF0 000:115.030 - 0.031ms returns 180100254
T1DF0 000:117.012 JLINK_GetOEMString(...)
T1DF0 000:118.807 JLINK_TIF_Select(JLINKARM_TIF_SWD)
T1DF0 000:120.253 - 1.476ms returns 0x00
T1DF0 000:120.290 JLINK_HasError()
T1DF0 000:120.299 JLINK_SetSpeed(5000)
T1DF0 000:120.634 - 0.350ms
T1DF0 000:120.670 JLINK_GetId()
T1DF0 000:124.192   Found SW-DP with ID 0x2BA01477
T1DF0 000:131.505   Old FW that does not support reading DPIDR via DAP jobs
T1DF0 000:140.911   DPv0 detected
T1DF0 000:142.759   CoreSight SoC-400 or earlier
T1DF0 000:144.625   Scanning AP map to find all available APs
T1DF0 000:152.568   AP[1]: Stopped AP scan as end of AP map has been reached
T1DF0 000:154.584   AP[0]: AHB-AP (IDR: 0x24770011)
T1DF0 000:156.808   Iterating through AP map to find AHB-AP to use
T1DF0 000:169.872   AP[0]: Core found
T1DF0 000:172.422   AP[0]: AHB-AP ROM base: 0xE00FF000
T1DF0 000:178.614   CPUID register: 0x410FC241. Implementer code: 0x41 (ARM)
T1DF0 000:180.625   Found Cortex-M4 r0p1, Little endian.
T1DF0 000:281.576   -- Max. mem block: 0x000020F0
T1DF0 000:282.171   CPU_ReadMem(4 bytes @ 0xE000EDF0)
T1DF0 000:282.927   CPU_WriteMem(4 bytes @ 0xE000EDF0)
T1DF0 000:283.663   CPU_ReadMem(4 bytes @ 0xE0002000)
T1DF0 000:292.529   FPUnit: 6 code (BP) slots and 2 literal slots
T1DF0 000:292.594   CPU_ReadMem(4 bytes @ 0xE000EDFC)
T1DF0 000:293.437   CPU_WriteMem(4 bytes @ 0xE000EDFC)
T1DF0 000:294.300   CPU_ReadMem(4 bytes @ 0xE0001000)
T1DF0 000:295.047   CPU_WriteMem(4 bytes @ 0xE0001000)
T1DF0 000:295.924   CPU_ReadMem(4 bytes @ 0xE000ED88)
T1DF0 000:296.763   CPU_WriteMem(4 bytes @ 0xE000ED88)
T1DF0 000:297.545   CPU_ReadMem(4 bytes @ 0xE000ED88)
T1DF0 000:298.296   CPU_WriteMem(4 bytes @ 0xE000ED88)
T1DF0 000:305.112   CoreSight components:
T1DF0 000:311.238   ROMTbl[0] @ E00FF000
T1DF0 000:311.295   CPU_ReadMem(64 bytes @ 0xE00FF000)
T1DF0 000:312.657   CPU_ReadMem(32 bytes @ 0xE000EFE0)
T1DF0 000:319.356   [0][0]: E000E000 CID B105E00D PID 000BB00C SCS-M7
T1DF0 000:319.412   CPU_ReadMem(32 bytes @ 0xE0001FE0)
T1DF0 000:327.003   [0][1]: E0001000 CID B105E00D PID 003BB002 DWT
T1DF0 000:327.066   CPU_ReadMem(32 bytes @ 0xE0002FE0)
T1DF0 000:333.099   [0][2]: E0002000 CID B105E00D PID 002BB003 FPB
T1DF0 000:333.147   CPU_ReadMem(32 bytes @ 0xE0000FE0)
T1DF0 000:338.896   [0][3]: E0000000 CID B105E00D PID 003BB001 ITM
T1DF0 000:338.968   CPU_ReadMem(32 bytes @ 0xE0040FE0)
T1DF0 000:344.445   [0][4]: E0040000 CID B105900D PID 000BB9A1 TPIU
T1DF0 000:345.502 - 224.860ms returns 0x2BA01477
T1DF0 000:345.553 JLINK_GetDLLVersion()
T1DF0 000:345.565 - 0.017ms returns 76402
T1DF0 000:345.581 JLINK_CORE_GetFound()
T1DF0 000:345.591 - 0.015ms returns 0xE0000FF
T1DF0 000:345.606 JLINK_GetDebugInfo(0x100 = JLINKARM_ROM_TABLE_ADDR_INDEX)
T1DF0 000:345.619   Value=0xE00FF000
T1DF0 000:345.636 - 0.034ms returns 0
T1DF0 000:349.373 JLINK_GetDebugInfo(0x100 = JLINKARM_ROM_TABLE_ADDR_INDEX)
T1DF0 000:349.409   Value=0xE00FF000
T1DF0 000:349.424 - 0.056ms returns 0
T1DF0 000:349.437 JLINK_GetDebugInfo(0x101 = JLINKARM_DEBUG_INFO_ETM_ADDR_INDEX)
T1DF0 000:349.447   Value=0x00000000
T1DF0 000:349.460 - 0.028ms returns 0
T1DF0 000:349.473 JLINK_ReadMemEx(0xE0041FF0, 0x10 Bytes, Flags = 0x02000004)
T1DF0 000:349.501   CPU_ReadMem(16 bytes @ 0xE0041FF0)
T1DF0 000:350.421   Data:  00 00 00 00 00 00 00 00 00 00 00 00 00 00 00 00
T1DF0 000:350.443 - 0.975ms returns 16 (0x10)
T1DF0 000:350.459 JLINK_GetDebugInfo(0x102 = JLINKARM_DEBUG_INFO_MTB_ADDR_INDEX)
T1DF0 000:350.470   Value=0x00000000
T1DF0 000:350.483 - 0.028ms returns 0
T1DF0 000:350.495 JLINK_GetDebugInfo(0x103 = JLINKARM_DEBUG_INFO_TPIU_ADDR_INDEX)
T1DF0 000:350.506   Value=0xE0040000
T1DF0 000:350.518 - 0.027ms returns 0
T1DF0 000:350.530 JLINK_GetDebugInfo(0x104 = JLINKARM_DEBUG_INFO_ITM_ADDR_INDEX)
T1DF0 000:350.540   Value=0xE0000000
T1DF0 000:350.553 - 0.027ms returns 0
T1DF0 000:350.565 JLINK_GetDebugInfo(0x105 = JLINKARM_DEBUG_INFO_DWT_ADDR_INDEX)
T1DF0 000:350.575   Value=0xE0001000
T1DF0 000:350.588 - 0.027ms returns 0
T1DF0 000:350.600 JLINK_GetDebugInfo(0x106 = JLINKARM_DEBUG_INFO_FPB_ADDR_INDEX)
T1DF0 000:350.610   Value=0xE0002000
T1DF0 000:350.626 - 0.031ms returns 0
T1DF0 000:350.639 JLINK_GetDebugInfo(0x107 = JLINKARM_DEBUG_INFO_NVIC_ADDR_INDEX)
T1DF0 000:350.649   Value=0xE000E000
T1DF0 000:350.661 - 0.027ms returns 0
T1DF0 000:350.673 JLINK_GetDebugInfo(0x10C = JLINKARM_DEBUG_INFO_DBG_ADDR_INDEX)
T1DF0 000:350.683   Value=0xE000EDF0
T1DF0 000:350.696 - 0.027ms returns 0
T1DF0 000:350.708 JLINK_GetDebugInfo(0x01 = Unknown)
T1DF0 000:350.718   Value=0x00000001
T1DF0 000:350.731 - 0.027ms returns 0
T1DF0 000:350.743 JLINK_ReadMemU32(0xE000ED00, 0x1 Items)
T1DF0 000:350.760   CPU_ReadMem(4 bytes @ 0xE000ED00)
T1DF0 000:351.521   Data:  41 C2 0F 41
T1DF0 000:351.541   Debug reg: CPUID
T1DF0 000:351.555 - 0.817ms returns 1 (0x1)
T1DF0 000:351.570 JLINK_GetDebugInfo(0x10F = JLINKARM_DEBUG_INFO_HAS_CORTEX_M_SECURITY_EXT_INDEX)
T1DF0 000:351.581   Value=0x00000000
T1DF0 000:351.594 - 0.028ms returns 0
T1DF0 000:351.607 JLINK_HasError()
T1DF0 000:351.623 JLINK_SetResetType(JLINKARM_CM3_RESET_TYPE_CORE)
T1DF0 000:351.634 - 0.017ms returns JLINKARM_CM3_RESET_TYPE_NORMAL
T1DF0 000:351.652 JLINK_Reset()
T1DF0 000:351.676   CPU is running
T1DF0 000:351.692   CPU_WriteMem(4 bytes @ 0xE000EDF0)
T1DF0 000:352.418   CPU is running
T1DF0 000:352.439   CPU_WriteMem(4 bytes @ 0xE000EDFC)
T1DF0 000:359.180   Reset: Halt core after reset via DEMCR.VC_CORERESET.
T1DF0 000:362.746   Reset: Reset device via AIRCR.VECTRESET.
T1DF0 000:362.774   CPU is running
T1DF0 000:362.795   CPU_WriteMem(4 bytes @ 0xE000ED0C)
T1DF0 000:363.499   CPU_ReadMem(4 bytes @ 0xE000EDF0)
T1DF0 000:364.113   CPU_ReadMem(4 bytes @ 0xE000EDF0)
T1DF0 000:364.741   CPU is running
T1DF0 000:364.784   CPU_WriteMem(4 bytes @ 0xE000EDF0)
T1DF0 000:365.537   CPU is running
T1DF0 000:365.555   CPU_WriteMem(4 bytes @ 0xE000EDFC)
T1DF0 000:370.672   CPU_ReadMem(4 bytes @ 0xE000EDF0)
T1DF0 000:376.302   CPU_WriteMem(4 bytes @ 0xE0002000)
T1DF0 000:377.029   CPU_ReadMem(4 bytes @ 0xE000EDFC)
T1DF0 000:377.779   CPU_ReadMem(4 bytes @ 0xE0001000)
T1DF0 000:378.535 - 26.888ms
T1DF0 000:378.553 JLINK_Halt()
T1DF0 000:378.561 - 0.011ms returns 0x00
T1DF0 000:378.572 JLINK_ReadMemU32(0xE000EDF0, 0x1 Items)
T1DF0 000:378.587   CPU_ReadMem(4 bytes @ 0xE000EDF0)
T1DF0 000:379.279   Data:  03 00 03 00
T1DF0 000:379.291   Debug reg: DHCSR
T1DF0 000:379.300 - 0.731ms returns 1 (0x1)
T1DF0 000:379.311 JLINK_WriteU32_64(0xE000EDF0, 0xA05F0003)
T1DF0 000:379.318   Debug reg: DHCSR
T1DF0 000:379.757   CPU_WriteMem(4 bytes @ 0xE000EDF0)
T1DF0 000:380.403 - 1.097ms returns 0 (0x00000000)
T1DF0 000:380.417 JLINK_WriteU32_64(0xE000EDFC, 0x01000000)
T1DF0 000:380.426   Debug reg: DEMCR
T1DF0 000:380.439   CPU_WriteMem(4 bytes @ 0xE000EDFC)
T1DF0 000:381.153 - 0.741ms returns 0 (0x00000000)
T1DF0 000:390.148 JLINK_GetHWStatus(...)
T1DF0 000:390.658 - 0.517ms returns 0
T1DF0 000:396.099 JLINK_GetNumBPUnits(Type = 0xFFFFFF00)
T1DF0 000:396.120 - 0.024ms returns 0x06
T1DF0 000:396.129 JLINK_GetNumBPUnits(Type = 0xF0)
T1DF0 000:396.135 - 0.009ms returns 0x2000
T1DF0 000:396.143 JLINK_GetNumWPUnits()
T1DF0 000:396.148 - 0.008ms returns 4
T1DF0 000:401.458 JLINK_GetSpeed()
T1DF0 000:401.477 - 0.022ms returns 2000
T1DF0 000:406.743 JLINK_ReadMemU32(0xE000E004, 0x1 Items)
T1DF0 000:406.783   CPU_ReadMem(4 bytes @ 0xE000E004)
T1DF0 000:407.499   Data:  01 00 00 00
T1DF0 000:407.526 - 0.785ms returns 1 (0x1)
T1DF0 000:407.535 JLINK_ReadMemU32(0xE000E004, 0x1 Items)
T1DF0 000:407.546   CPU_ReadMem(4 bytes @ 0xE000E004)
T1DF0 000:408.249   Data:  01 00 00 00
T1DF0 000:408.274 - 0.742ms returns 1 (0x1)
T1DF0 000:408.284 JLINK_WriteMemEx(0xE0001000, 0x0000001C Bytes, Flags = 0x02000004)
T1DF0 000:408.291   Data:  01 00 00 00 00 00 00 00 00 00 00 00 00 00 00 00 ...
T1DF0 000:408.307   CPU_WriteMem(28 bytes @ 0xE0001000)
T1DF0 000:409.244 - 0.972ms returns 0x1C
T1DF0 000:409.276 JLINK_Halt()
T1DF0 000:409.283 - 0.009ms returns 0x00
T1DF0 000:409.290 JLINK_IsHalted()
T1DF0 000:409.297 - 0.010ms returns TRUE
T1DF0 000:413.748 JLINK_WriteMem(0x20000000, 0x588 Bytes, ...)
T1DF0 000:413.762   Data:  00 BE 0A E0 0D 78 2D 06 68 40 08 24 40 00 00 D3 ...
T1DF0 000:414.162   CPU_WriteMem(1416 bytes @ 0x20000000)
T1DF0 000:428.331 - 14.605ms returns 0x588
T1DF0 000:428.401 JLINK_HasError()
T1DF0 000:428.412 JLINK_WriteReg(R0, 0x02000000)
T1DF0 000:428.424 - 0.015ms returns 0
T1DF0 000:428.433 JLINK_WriteReg(R1, 0x00B71B00)
T1DF0 000:428.439 - 0.009ms returns 0
T1DF0 000:428.447 JLINK_WriteReg(R2, 0x00000001)
T1DF0 000:428.453 - 0.009ms returns 0
T1DF0 000:428.461 JLINK_WriteReg(R3, 0x00000000)
T1DF0 000:428.467 - 0.009ms returns 0
T1DF0 000:428.475 JLINK_WriteReg(R4, 0x00000000)
T1DF0 000:428.481 - 0.009ms returns 0
T1DF0 000:428.489 JLINK_WriteReg(R5, 0x00000000)
T1DF0 000:428.495 - 0.009ms returns 0
T1DF0 000:428.503 JLINK_WriteReg(R6, 0x00000000)
T1DF0 000:428.509 - 0.009ms returns 0
T1DF0 000:428.517 JLINK_WriteReg(R7, 0x00000000)
T1DF0 000:428.524 - 0.009ms returns 0
T1DF0 000:428.531 JLINK_WriteReg(R8, 0x00000000)
T1DF0 000:428.537 - 0.009ms returns 0
T1DF0 000:428.545 JLINK_WriteReg(R9, 0x20000584)
T1DF0 000:428.551 - 0.009ms returns 0
T1DF0 000:428.559 JLINK_WriteReg(R10, 0x00000000)
T1DF0 000:428.565 - 0.009ms returns 0
T1DF0 000:428.573 JLINK_WriteReg(R11, 0x00000000)
T1DF0 000:428.584 - 0.016ms returns 0
T1DF0 000:428.595 JLINK_WriteReg(R12, 0x00000000)
T1DF0 000:428.606 - 0.014ms returns 0
T1DF0 000:428.617 JLINK_WriteReg(R13 (SP), 0x20008000)
T1DF0 000:428.657 - 0.048ms returns 0
T1DF0 000:428.675 JLINK_WriteReg(R14, 0x20000001)
T1DF0 000:428.682 - 0.019ms returns 0
T1DF0 000:428.701 JLINK_WriteReg(R15 (PC), 0x2000053A)
T1DF0 000:428.708 - 0.010ms returns 0
T1DF0 000:428.716 JLINK_WriteReg(XPSR, 0x01000000)
T1DF0 000:428.722 - 0.009ms returns 0
T1DF0 000:428.730 JLINK_WriteReg(MSP, 0x20008000)
T1DF0 000:428.736 - 0.009ms returns 0
T1DF0 000:428.744 JLINK_WriteReg(PSP, 0x20008000)
T1DF0 000:428.750 - 0.009ms returns 0
T1DF0 000:428.758 JLINK_WriteReg(CFBP, 0x00000000)
T1DF0 000:428.764 - 0.009ms returns 0
T1DF0 000:428.772 JLINK_SetBPEx(Addr = 0x20000000, Type = 0xFFFFFFF2)
T1DF0 000:428.787   CPU_ReadMem(4 bytes @ 0x20000000)
T1DF0 000:429.512   CPU_WriteMem(4 bytes @ 0x20000000)
T1DF0 000:430.327   CPU_ReadMem(4 bytes @ 0x20000000)
T1DF0 000:431.316   CPU_WriteMem(4 bytes @ 0x20000000)
T1DF0 000:432.719   CPU_ReadMem(2 bytes @ 0x20000000)
T1DF0 000:433.643 - 4.883ms returns 0x00000001
T1DF0 000:433.711 JLINK_Go()
T1DF0 000:433.728   CPU_WriteMem(2 bytes @ 0x20000000)
T1DF0 000:434.510   CPU_ReadMem(4 bytes @ 0xE0001000)
T1DF0 000:435.275   CPU_WriteMem(4 bytes @ 0xE0002008)
T1DF0 000:435.308   CPU_WriteMem(4 bytes @ 0xE000200C)
T1DF0 000:435.319   CPU_WriteMem(4 bytes @ 0xE0002010)
T1DF0 000:435.328   CPU_WriteMem(4 bytes @ 0xE0002014)
T1DF0 000:435.336   CPU_WriteMem(4 bytes @ 0xE0002018)
T1DF0 000:435.345   CPU_WriteMem(4 bytes @ 0xE000201C)
T1DF0 000:437.890   CPU_WriteMem(4 bytes @ 0xE0001004)
T1DF0 000:444.260 - 10.618ms
T1DF0 000:444.345 JLINK_IsHalted()
T1DF0 000:449.425   CPU_ReadMem(2 bytes @ 0x20000000)
T1DF0 000:450.143 - 5.815ms returns TRUE
T1DF0 000:450.170 JLINK_ReadReg(R15 (PC))
T1DF0 000:450.181 - 0.014ms returns 0x20000000
T1DF0 000:450.190 JLINK_ClrBPEx(BPHandle = 0x00000001)
T1DF0 000:450.197 - 0.010ms returns 0x00
T1DF0 000:450.205 JLINK_ReadReg(R0)
T1DF0 000:450.212 - 0.009ms returns 0x00000000
T1DF0 000:450.718 JLINK_HasError()
T1DF0 000:450.731 JLINK_WriteReg(R0, 0x02028000)
T1DF0 000:450.740 - 0.011ms returns 0
T1DF0 000:450.748 JLINK_WriteReg(R1, 0x00001000)
T1DF0 000:450.755 - 0.009ms returns 0
T1DF0 000:450.763 JLINK_WriteReg(R2, 0x000000FF)
T1DF0 000:450.769 - 0.009ms returns 0
T1DF0 000:450.777 JLINK_WriteReg(R3, 0x00000000)
T1DF0 000:450.784 - 0.009ms returns 0
T1DF0 000:450.791 JLINK_WriteReg(R4, 0x00000000)
T1DF0 000:450.797 - 0.009ms returns 0
T1DF0 000:450.805 JLINK_WriteReg(R5, 0x00000000)
T1DF0 000:450.812 - 0.009ms returns 0
T1DF0 000:450.819 JLINK_WriteReg(R6, 0x00000000)
T1DF0 000:450.826 - 0.009ms returns 0
T1DF0 000:450.833 JLINK_WriteReg(R7, 0x00000000)
T1DF0 000:450.840 - 0.009ms returns 0
T1DF0 000:450.848 JLINK_WriteReg(R8, 0x00000000)
T1DF0 000:450.854 - 0.009ms returns 0
T1DF0 000:450.861 JLINK_WriteReg(R9, 0x20000584)
T1DF0 000:450.868 - 0.009ms returns 0
T1DF0 000:450.876 JLINK_WriteReg(R10, 0x00000000)
T1DF0 000:450.882 - 0.009ms returns 0
T1DF0 000:450.890 JLINK_WriteReg(R11, 0x00000000)
T1DF0 000:450.896 - 0.009ms returns 0
T1DF0 000:450.904 JLINK_WriteReg(R12, 0x00000000)
T1DF0 000:450.910 - 0.009ms returns 0
T1DF0 000:450.917 JLINK_WriteReg(R13 (SP), 0x20008000)
T1DF0 000:450.924 - 0.010ms returns 0
T1DF0 000:450.932 JLINK_WriteReg(R14, 0x20000001)
T1DF0 000:450.939 - 0.009ms returns 0
T1DF0 000:450.947 JLINK_WriteReg(R15 (PC), 0x20000020)
T1DF0 000:450.953 - 0.009ms returns 0
T1DF0 000:450.961 JLINK_WriteReg(XPSR, 0x01000000)
T1DF0 000:450.968 - 0.009ms returns 0
T1DF0 000:450.975 JLINK_WriteReg(MSP, 0x20008000)
T1DF0 000:450.982 - 0.009ms returns 0
T1DF0 000:450.989 JLINK_WriteReg(PSP, 0x20008000)
T1DF0 000:450.996 - 0.009ms returns 0
T1DF0 000:451.003 JLINK_WriteReg(CFBP, 0x00000000)
T1DF0 000:451.010 - 0.009ms returns 0
T1DF0 000:451.018 JLINK_SetBPEx(Addr = 0x20000000, Type = 0xFFFFFFF2)
T1DF0 000:451.025 - 0.010ms returns 0x00000002
T1DF0 000:451.033 JLINK_Go()
T1DF0 000:451.048   CPU_ReadMem(4 bytes @ 0xE0001000)
T1DF0 000:456.535 - 5.532ms
T1DF0 000:456.574 JLINK_IsHalted()
T1DF0 000:461.585   CPU_ReadMem(2 bytes @ 0x20000000)
T1DF0 000:462.387 - 5.835ms returns TRUE
T1DF0 000:462.421 JLINK_ReadReg(R15 (PC))
T1DF0 000:462.431 - 0.013ms returns 0x20000000
T1DF0 000:462.441 JLINK_ClrBPEx(BPHandle = 0x00000002)
T1DF0 000:462.448 - 0.010ms returns 0x00
T1DF0 000:462.457 JLINK_ReadReg(R0)
T1DF0 000:462.464 - 0.010ms returns 0x00000001
T1DF0 000:462.473 JLINK_HasError()
T1DF0 000:462.482 JLINK_WriteReg(R0, 0x02028000)
T1DF0 000:462.490 - 0.010ms returns 0
T1DF0 000:462.497 JLINK_WriteReg(R1, 0x00001000)
T1DF0 000:462.504 - 0.009ms returns 0
T1DF0 000:462.512 JLINK_WriteReg(R2, 0x000000FF)
T1DF0 000:462.519 - 0.009ms returns 0
T1DF0 000:462.527 JLINK_WriteReg(R3, 0x00000000)
T1DF0 000:462.533 - 0.009ms returns 0
T1DF0 000:462.542 JLINK_WriteReg(R4, 0x00000000)
T1DF0 000:462.548 - 0.009ms returns 0
T1DF0 000:462.556 JLINK_WriteReg(R5, 0x00000000)
T1DF0 000:462.562 - 0.009ms returns 0
T1DF0 000:462.570 JLINK_WriteReg(R6, 0x00000000)
T1DF0 000:462.580 - 0.014ms returns 0
T1DF0 000:462.593 JLINK_WriteReg(R7, 0x00000000)
T1DF0 000:462.603 - 0.014ms returns 0
T1DF0 000:462.704 JLINK_WriteReg(R8, 0x00000000)
T1DF0 000:462.733 - 0.244ms returns 0
T1DF0 000:462.956 JLINK_WriteReg(R9, 0x20000584)
T1DF0 000:462.965 - 0.011ms returns 0
T1DF0 000:462.973 JLINK_WriteReg(R10, 0x00000000)
T1DF0 000:462.980 - 0.009ms returns 0
T1DF0 000:462.987 JLINK_WriteReg(R11, 0x00000000)
T1DF0 000:462.994 - 0.009ms returns 0
T1DF0 000:463.001 JLINK_WriteReg(R12, 0x00000000)
T1DF0 000:463.008 - 0.009ms returns 0
T1DF0 000:463.017 JLINK_WriteReg(R13 (SP), 0x20008000)
T1DF0 000:463.027 - 0.015ms returns 0
T1DF0 000:463.040 JLINK_WriteReg(R14, 0x20000001)
T1DF0 000:463.047 - 0.010ms returns 0
T1DF0 000:463.055 JLINK_WriteReg(R15 (PC), 0x20000548)
T1DF0 000:463.066 - 0.014ms returns 0
T1DF0 000:463.074 JLINK_WriteReg(XPSR, 0x01000000)
T1DF0 000:463.080 - 0.009ms returns 0
T1DF0 000:463.087 JLINK_WriteReg(MSP, 0x20008000)
T1DF0 000:463.094 - 0.009ms returns 0
T1DF0 000:463.102 JLINK_WriteReg(PSP, 0x20008000)
T1DF0 000:463.108 - 0.009ms returns 0
T1DF0 000:463.116 JLINK_WriteReg(CFBP, 0x00000000)
T1DF0 000:463.122 - 0.009ms returns 0
T1DF0 000:463.130 JLINK_SetBPEx(Addr = 0x20000000, Type = 0xFFFFFFF2)
T1DF0 000:463.138 - 0.011ms returns 0x00000003
T1DF0 000:463.146 JLINK_Go()
T1DF0 000:463.162   CPU_ReadMem(4 bytes @ 0xE0001000)
T1DF0 000:469.016 - 5.893ms
T1DF0 000:469.049 JLINK_IsHalted()
T1DF0 000:469.749 - 0.707ms returns FALSE
T1DF0 000:469.764 JLINK_HasError()
T1DF0 000:482.644 JLINK_IsHalted()
T1DF0 000:484.035 - 1.444ms returns FALSE
T1DF0 000:484.116 JLINK_HasError()
T1DF0 000:486.669 JLINK_IsHalted()
T1DF0 000:491.718   CPU_ReadMem(2 bytes @ 0x20000000)
T1DF0 000:492.377 - 5.715ms returns TRUE
T1DF0 000:492.425 JLINK_ReadReg(R15 (PC))
T1DF0 000:492.438 - 0.016ms returns 0x20000000
T1DF0 000:492.447 JLINK_ClrBPEx(BPHandle = 0x00000003)
T1DF0 000:492.455 - 0.010ms returns 0x00
T1DF0 000:492.463 JLINK_ReadReg(R0)
T1DF0 000:492.470 - 0.010ms returns 0x00000000
T1DF0 000:492.984 JLINK_HasError()
T1DF0 000:492.998 JLINK_WriteReg(R0, 0x02029000)
T1DF0 000:493.006 - 0.011ms returns 0
T1DF0 000:493.014 JLINK_WriteReg(R1, 0x00001000)
T1DF0 000:493.021 - 0.009ms returns 0
T1DF0 000:493.028 JLINK_WriteReg(R2, 0x000000FF)
T1DF0 000:493.034 - 0.009ms returns 0
T1DF0 000:493.041 JLINK_WriteReg(R3, 0x00000000)
T1DF0 000:493.047 - 0.009ms returns 0
T1DF0 000:493.055 JLINK_WriteReg(R4, 0x00000000)
T1DF0 000:493.061 - 0.009ms returns 0
T1DF0 000:493.068 JLINK_WriteReg(R5, 0x00000000)
T1DF0 000:493.074 - 0.009ms returns 0
T1DF0 000:493.081 JLINK_WriteReg(R6, 0x00000000)
T1DF0 000:493.087 - 0.009ms returns 0
T1DF0 000:493.094 JLINK_WriteReg(R7, 0x00000000)
T1DF0 000:493.101 - 0.009ms returns 0
T1DF0 000:493.108 JLINK_WriteReg(R8, 0x00000000)
T1DF0 000:493.114 - 0.009ms returns 0
T1DF0 000:493.121 JLINK_WriteReg(R9, 0x20000584)
T1DF0 000:493.128 - 0.009ms returns 0
T1DF0 000:493.135 JLINK_WriteReg(R10, 0x00000000)
T1DF0 000:493.141 - 0.009ms returns 0
T1DF0 000:493.148 JLINK_WriteReg(R11, 0x00000000)
T1DF0 000:493.154 - 0.013ms returns 0
T1DF0 000:493.168 JLINK_WriteReg(R12, 0x00000000)
T1DF0 000:493.175 - 0.009ms returns 0
T1DF0 000:493.182 JLINK_WriteReg(R13 (SP), 0x20008000)
T1DF0 000:493.189 - 0.009ms returns 0
T1DF0 000:493.196 JLINK_WriteReg(R14, 0x20000001)
T1DF0 000:493.203 - 0.009ms returns 0
T1DF0 000:493.210 JLINK_WriteReg(R15 (PC), 0x20000020)
T1DF0 000:493.216 - 0.009ms returns 0
T1DF0 000:493.223 JLINK_WriteReg(XPSR, 0x01000000)
T1DF0 000:493.229 - 0.009ms returns 0
T1DF0 000:493.236 JLINK_WriteReg(MSP, 0x20008000)
T1DF0 000:493.242 - 0.008ms returns 0
T1DF0 000:493.249 JLINK_WriteReg(PSP, 0x20008000)
T1DF0 000:493.255 - 0.009ms returns 0
T1DF0 000:493.262 JLINK_WriteReg(CFBP, 0x00000000)
T1DF0 000:493.268 - 0.009ms returns 0
T1DF0 000:493.276 JLINK_SetBPEx(Addr = 0x20000000, Type = 0xFFFFFFF2)
T1DF0 000:493.283 - 0.010ms returns 0x00000004
T1DF0 000:493.291 JLINK_Go()
T1DF0 000:493.308   CPU_ReadMem(4 bytes @ 0xE0001000)
T1DF0 000:499.035 - 5.766ms
T1DF0 000:499.074 JLINK_IsHalted()
T1DF0 000:504.352   CPU_ReadMem(2 bytes @ 0x20000000)
T1DF0 000:505.407 - 6.342ms returns TRUE
T1DF0 000:505.425 JLINK_ReadReg(R15 (PC))
T1DF0 000:505.435 - 0.014ms returns 0x20000000
T1DF0 000:505.444 JLINK_ClrBPEx(BPHandle = 0x00000004)
T1DF0 000:505.451 - 0.010ms returns 0x00
T1DF0 000:505.460 JLINK_ReadReg(R0)
T1DF0 000:505.467 - 0.010ms returns 0x00000001
T1DF0 000:505.476 JLINK_HasError()
T1DF0 000:505.484 JLINK_WriteReg(R0, 0x02029000)
T1DF0 000:505.491 - 0.010ms returns 0
T1DF0 000:505.499 JLINK_WriteReg(R1, 0x00001000)
T1DF0 000:505.505 - 0.009ms returns 0
T1DF0 000:505.513 JLINK_WriteReg(R2, 0x000000FF)
T1DF0 000:505.519 - 0.009ms returns 0
T1DF0 000:505.527 JLINK_WriteReg(R3, 0x00000000)
T1DF0 000:505.533 - 0.009ms returns 0
T1DF0 000:505.541 JLINK_WriteReg(R4, 0x00000000)
T1DF0 000:505.547 - 0.009ms returns 0
T1DF0 000:505.555 JLINK_WriteReg(R5, 0x00000000)
T1DF0 000:505.561 - 0.009ms returns 0
T1DF0 000:505.569 JLINK_WriteReg(R6, 0x00000000)
T1DF0 000:505.575 - 0.009ms returns 0
T1DF0 000:505.583 JLINK_WriteReg(R7, 0x00000000)
T1DF0 000:505.589 - 0.009ms returns 0
T1DF0 000:505.596 JLINK_WriteReg(R8, 0x00000000)
T1DF0 000:505.603 - 0.009ms returns 0
T1DF0 000:505.611 JLINK_WriteReg(R9, 0x20000584)
T1DF0 000:505.617 - 0.011ms returns 0
T1DF0 000:505.626 JLINK_WriteReg(R10, 0x00000000)
T1DF0 000:505.632 - 0.009ms returns 0
T1DF0 000:505.640 JLINK_WriteReg(R11, 0x00000000)
T1DF0 000:505.646 - 0.009ms returns 0
T1DF0 000:505.654 JLINK_WriteReg(R12, 0x00000000)
T1DF0 000:505.660 - 0.009ms returns 0
T1DF0 000:505.668 JLINK_WriteReg(R13 (SP), 0x20008000)
T1DF0 000:505.675 - 0.010ms returns 0
T1DF0 000:505.683 JLINK_WriteReg(R14, 0x20000001)
T1DF0 000:505.689 - 0.009ms returns 0
T1DF0 000:505.696 JLINK_WriteReg(R15 (PC), 0x20000548)
T1DF0 000:505.703 - 0.009ms returns 0
T1DF0 000:505.710 JLINK_WriteReg(XPSR, 0x01000000)
T1DF0 000:505.717 - 0.009ms returns 0
T1DF0 000:505.724 JLINK_WriteReg(MSP, 0x20008000)
T1DF0 000:505.731 - 0.009ms returns 0
T1DF0 000:505.738 JLINK_WriteReg(PSP, 0x20008000)
T1DF0 000:505.745 - 0.009ms returns 0
T1DF0 000:505.752 JLINK_WriteReg(CFBP, 0x00000000)
T1DF0 000:505.759 - 0.009ms returns 0
T1DF0 000:505.766 JLINK_SetBPEx(Addr = 0x20000000, Type = 0xFFFFFFF2)
T1DF0 000:505.774 - 0.010ms returns 0x00000005
T1DF0 000:505.782 JLINK_Go()
T1DF0 000:505.796   CPU_ReadMem(4 bytes @ 0xE0001000)
T1DF0 000:511.537 - 5.778ms
T1DF0 000:511.578 JLINK_IsHalted()
T1DF0 000:512.278 - 0.707ms returns FALSE
T1DF0 000:512.294 JLINK_HasError()
T1DF0 000:512.659 JLINK_IsHalted()
T1DF0 000:513.406 - 0.770ms returns FALSE
T1DF0 000:513.437 JLINK_HasError()
T1DF0 000:513.662 JLINK_IsHalted()
T1DF0 000:514.403 - 0.754ms returns FALSE
T1DF0 000:514.434 JLINK_HasError()
T1DF0 000:514.661 JLINK_IsHalted()
T1DF0 000:515.403 - 0.755ms returns FALSE
T1DF0 000:515.434 JLINK_HasError()
T1DF0 000:515.662 JLINK_IsHalted()
T1DF0 000:516.403 - 0.754ms returns FALSE
T1DF0 000:516.434 JLINK_HasError()
T1DF0 000:516.663 JLINK_IsHalted()
T1DF0 000:517.384 - 0.746ms returns FALSE
T1DF0 000:517.420 JLINK_HasError()
T1DF0 000:517.655 JLINK_IsHalted()
T1DF0 000:518.382 - 0.749ms returns FALSE
T1DF0 000:518.410 JLINK_HasError()
T1DF0 000:518.657 JLINK_IsHalted()
T1DF0 000:519.407 - 0.764ms returns FALSE
T1DF0 000:519.437 JLINK_HasError()
T1DF0 000:519.670 JLINK_IsHalted()
T1DF0 000:520.404 - 0.759ms returns FALSE
T1DF0 000:520.436 JLINK_HasError()
T1DF0 000:520.660 JLINK_IsHalted()
T1DF0 000:521.404 - 0.758ms returns FALSE
T1DF0 000:521.435 JLINK_HasError()
T1DF0 000:521.672 JLINK_IsHalted()
T1DF0 000:522.383 - 0.718ms returns FALSE
T1DF0 000:522.398 JLINK_HasError()
T1DF0 000:522.671 JLINK_IsHalted()
T1DF0 000:523.359 - 0.696ms returns FALSE
T1DF0 000:523.374 JLINK_HasError()
T1DF0 000:523.667 JLINK_IsHalted()
T1DF0 000:524.375 - 0.714ms returns FALSE
T1DF0 000:524.389 JLINK_HasError()
T1DF0 000:524.651 JLINK_IsHalted()
T1DF0 000:525.405 - 0.777ms returns FALSE
T1DF0 000:525.435 JLINK_HasError()
T1DF0 000:525.697 JLINK_IsHalted()
T1DF0 000:526.402 - 0.719ms returns FALSE
T1DF0 000:526.433 JLINK_HasError()
T1DF0 000:526.659 JLINK_IsHalted()
T1DF0 000:527.403 - 0.759ms returns FALSE
T1DF0 000:527.435 JLINK_HasError()
T1DF0 000:527.660 JLINK_IsHalted()
T1DF0 000:532.654   CPU_ReadMem(2 bytes @ 0x20000000)
T1DF0 000:533.415 - 5.769ms returns TRUE
T1DF0 000:533.450 JLINK_ReadReg(R15 (PC))
T1DF0 000:533.460 - 0.013ms returns 0x20000000
T1DF0 000:533.468 JLINK_ClrBPEx(BPHandle = 0x00000005)
T1DF0 000:533.475 - 0.009ms returns 0x00
T1DF0 000:533.482 JLINK_ReadReg(R0)
T1DF0 000:533.488 - 0.009ms returns 0x00000000
T1DF0 000:533.825 JLINK_HasError()
T1DF0 000:533.837 JLINK_WriteReg(R0, 0x00000001)
T1DF0 000:533.845 - 0.011ms returns 0
T1DF0 000:533.853 JLINK_WriteReg(R1, 0x00001000)
T1DF0 000:533.859 - 0.009ms returns 0
T1DF0 000:533.867 JLINK_WriteReg(R2, 0x000000FF)
T1DF0 000:533.873 - 0.009ms returns 0
T1DF0 000:533.880 JLINK_WriteReg(R3, 0x00000000)
T1DF0 000:533.886 - 0.009ms returns 0
T1DF0 000:533.894 JLINK_WriteReg(R4, 0x00000000)
T1DF0 000:533.900 - 0.009ms returns 0
T1DF0 000:533.907 JLINK_WriteReg(R5, 0x00000000)
T1DF0 000:533.913 - 0.009ms returns 0
T1DF0 000:533.920 JLINK_WriteReg(R6, 0x00000000)
T1DF0 000:533.927 - 0.009ms returns 0
T1DF0 000:533.934 JLINK_WriteReg(R7, 0x00000000)
T1DF0 000:533.940 - 0.009ms returns 0
T1DF0 000:533.947 JLINK_WriteReg(R8, 0x00000000)
T1DF0 000:533.953 - 0.009ms returns 0
T1DF0 000:533.960 JLINK_WriteReg(R9, 0x20000584)
T1DF0 000:533.966 - 0.009ms returns 0
T1DF0 000:533.974 JLINK_WriteReg(R10, 0x00000000)
T1DF0 000:533.980 - 0.009ms returns 0
T1DF0 000:533.987 JLINK_WriteReg(R11, 0x00000000)
T1DF0 000:533.993 - 0.009ms returns 0
T1DF0 000:534.000 JLINK_WriteReg(R12, 0x00000000)
T1DF0 000:534.006 - 0.009ms returns 0
T1DF0 000:534.013 JLINK_WriteReg(R13 (SP), 0x20008000)
T1DF0 000:534.021 - 0.010ms returns 0
T1DF0 000:534.028 JLINK_WriteReg(R14, 0x20000001)
T1DF0 000:534.034 - 0.009ms returns 0
T1DF0 000:534.041 JLINK_WriteReg(R15 (PC), 0x20000544)
T1DF0 000:534.048 - 0.009ms returns 0
T1DF0 000:534.055 JLINK_WriteReg(XPSR, 0x01000000)
T1DF0 000:534.061 - 0.009ms returns 0
T1DF0 000:534.068 JLINK_WriteReg(MSP, 0x20008000)
T1DF0 000:534.075 - 0.009ms returns 0
T1DF0 000:534.082 JLINK_WriteReg(PSP, 0x20008000)
T1DF0 000:534.088 - 0.009ms returns 0
T1DF0 000:534.095 JLINK_WriteReg(CFBP, 0x00000000)
T1DF0 000:534.101 - 0.008ms returns 0
T1DF0 000:534.109 JLINK_SetBPEx(Addr = 0x20000000, Type = 0xFFFFFFF2)
T1DF0 000:534.116 - 0.010ms returns 0x00000006
T1DF0 000:534.123 JLINK_Go()
T1DF0 000:534.137   CPU_ReadMem(4 bytes @ 0xE0001000)
T1DF0 000:539.870 - 5.763ms
T1DF0 000:539.908 JLINK_IsHalted()
T1DF0 000:544.993   CPU_ReadMem(2 bytes @ 0x20000000)
T1DF0 000:545.788 - 6.053ms returns TRUE
T1DF0 000:545.989 JLINK_ReadReg(R15 (PC))
T1DF0 000:546.013 - 0.028ms returns 0x20000000
T1DF0 000:546.025 JLINK_ClrBPEx(BPHandle = 0x00000006)
T1DF0 000:546.036 - 0.014ms returns 0x00
T1DF0 000:546.048 JLINK_ReadReg(R0)
T1DF0 000:546.058 - 0.013ms returns 0x00000000
T1DF0 000:604.116 JLINK_WriteMem(0x20000000, 0x588 Bytes, ...)
T1DF0 000:604.139   Data:  00 BE 0A E0 0D 78 2D 06 68 40 08 24 40 00 00 D3 ...
T1DF0 000:604.169   CPU_WriteMem(1416 bytes @ 0x20000000)
T1DF0 000:618.393 - 14.295ms returns 0x588
T1DF0 000:618.454 JLINK_HasError()
T1DF0 000:618.469 JLINK_WriteReg(R0, 0x02000000)
T1DF0 000:618.482 - 0.018ms returns 0
T1DF0 000:618.493 JLINK_WriteReg(R1, 0x00B71B00)
T1DF0 000:618.502 - 0.013ms returns 0
T1DF0 000:618.513 JLINK_WriteReg(R2, 0x00000002)
T1DF0 000:618.522 - 0.013ms returns 0
T1DF0 000:618.532 JLINK_WriteReg(R3, 0x00000000)
T1DF0 000:618.541 - 0.013ms returns 0
T1DF0 000:618.551 JLINK_WriteReg(R4, 0x00000000)
T1DF0 000:618.559 - 0.013ms returns 0
T1DF0 000:618.570 JLINK_WriteReg(R5, 0x00000000)
T1DF0 000:618.578 - 0.013ms returns 0
T1DF0 000:618.589 JLINK_WriteReg(R6, 0x00000000)
T1DF0 000:618.597 - 0.012ms returns 0
T1DF0 000:618.607 JLINK_WriteReg(R7, 0x00000000)
T1DF0 000:618.616 - 0.012ms returns 0
T1DF0 000:618.630 JLINK_WriteReg(R8, 0x00000000)
T1DF0 000:618.639 - 0.013ms returns 0
T1DF0 000:618.649 JLINK_WriteReg(R9, 0x20000584)
T1DF0 000:618.658 - 0.012ms returns 0
T1DF0 000:618.668 JLINK_WriteReg(R10, 0x00000000)
T1DF0 000:618.677 - 0.013ms returns 0
T1DF0 000:618.687 JLINK_WriteReg(R11, 0x00000000)
T1DF0 000:618.696 - 0.013ms returns 0
T1DF0 000:618.706 JLINK_WriteReg(R12, 0x00000000)
T1DF0 000:618.714 - 0.012ms returns 0
T1DF0 000:618.724 JLINK_WriteReg(R13 (SP), 0x20008000)
T1DF0 000:618.734 - 0.014ms returns 0
T1DF0 000:618.745 JLINK_WriteReg(R14, 0x20000001)
T1DF0 000:618.754 - 0.012ms returns 0
T1DF0 000:618.763 JLINK_WriteReg(R15 (PC), 0x2000053A)
T1DF0 000:618.772 - 0.013ms returns 0
T1DF0 000:618.782 JLINK_WriteReg(XPSR, 0x01000000)
T1DF0 000:618.791 - 0.012ms returns 0
T1DF0 000:618.801 JLINK_WriteReg(MSP, 0x20008000)
T1DF0 000:618.810 - 0.012ms returns 0
T1DF0 000:618.820 JLINK_WriteReg(PSP, 0x20008000)
T1DF0 000:618.829 - 0.012ms returns 0
T1DF0 000:618.838 JLINK_WriteReg(CFBP, 0x00000000)
T1DF0 000:618.847 - 0.012ms returns 0
T1DF0 000:618.857 JLINK_SetBPEx(Addr = 0x20000000, Type = 0xFFFFFFF2)
T1DF0 000:618.875   CPU_ReadMem(4 bytes @ 0x20000000)
T1DF0 000:619.727   CPU_WriteMem(4 bytes @ 0x20000000)
T1DF0 000:620.504   CPU_ReadMem(4 bytes @ 0x20000000)
T1DF0 000:621.281   CPU_WriteMem(4 bytes @ 0x20000000)
T1DF0 000:622.044   CPU_ReadMem(2 bytes @ 0x20000000)
T1DF0 000:622.816 - 3.967ms returns 0x00000007
T1DF0 000:622.837 JLINK_Go()
T1DF0 000:622.852   CPU_WriteMem(2 bytes @ 0x20000000)
T1DF0 000:623.701   CPU_ReadMem(4 bytes @ 0xE0001000)
T1DF0 000:629.860 - 7.045ms
T1DF0 000:629.897 JLINK_IsHalted()
T1DF0 000:634.944   CPU_ReadMem(2 bytes @ 0x20000000)
T1DF0 000:635.745 - 5.856ms returns TRUE
T1DF0 000:635.771 JLINK_ReadReg(R15 (PC))
T1DF0 000:635.789 - 0.023ms returns 0x20000000
T1DF0 000:635.803 JLINK_ClrBPEx(BPHandle = 0x00000007)
T1DF0 000:635.814 - 0.014ms returns 0x00
T1DF0 000:635.825 JLINK_ReadReg(R0)
T1DF0 000:635.834 - 0.013ms returns 0x00000000
T1DF0 000:636.395 JLINK_WriteMem(0x20000588, 0x100 Bytes, ...)
T1DF0 000:636.411   Data:  00 00 00 00 1D 80 02 02 DF F8 0C D0 00 F0 1A F8 ...
T1DF0 000:636.447   CPU_WriteMem(256 bytes @ 0x20000588)
T1DF0 000:639.951 - 3.581ms returns 0x100
T1DF0 000:640.174 JLINK_HasError()
T1DF0 000:640.245 JLINK_WriteReg(R0, 0x02028000)
T1DF0 000:640.280 - 0.044ms returns 0
T1DF0 000:640.303 JLINK_WriteReg(R1, 0x00000100)
T1DF0 000:640.316 - 0.019ms returns 0
T1DF0 000:640.332 JLINK_WriteReg(R2, 0x20000588)
T1DF0 000:640.346 - 0.018ms returns 0
T1DF0 000:640.360 JLINK_WriteReg(R3, 0x00000000)
T1DF0 000:640.376 - 0.020ms returns 0
T1DF0 000:640.390 JLINK_WriteReg(R4, 0x00000000)
T1DF0 000:640.405 - 0.021ms returns 0
T1DF0 000:640.420 JLINK_WriteReg(R5, 0x00000000)
T1DF0 000:640.433 - 0.019ms returns 0
T1DF0 000:640.448 JLINK_WriteReg(R6, 0x00000000)
T1DF0 000:640.463 - 0.019ms returns 0
T1DF0 000:640.475 JLINK_WriteReg(R7, 0x00000000)
T1DF0 000:640.489 - 0.020ms returns 0
T1DF0 000:640.503 JLINK_WriteReg(R8, 0x00000000)
T1DF0 000:640.729 - 0.257ms returns 0
T1DF0 000:640.776 JLINK_WriteReg(R9, 0x20000584)
T1DF0 000:640.788 - 0.016ms returns 0
T1DF0 000:640.801 JLINK_WriteReg(R10, 0x00000000)
T1DF0 000:640.815 - 0.020ms returns 0
T1DF0 000:640.828 JLINK_WriteReg(R11, 0x00000000)
T1DF0 000:640.837 - 0.013ms returns 0
T1DF0 000:640.847 JLINK_WriteReg(R12, 0x00000000)
T1DF0 000:640.856 - 0.013ms returns 0
T1DF0 000:640.866 JLINK_WriteReg(R13 (SP), 0x20008000)
T1DF0 000:640.877 - 0.014ms returns 0
T1DF0 000:640.887 JLINK_WriteReg(R14, 0x20000001)
T1DF0 000:640.896 - 0.013ms returns 0
T1DF0 000:640.907 JLINK_WriteReg(R15 (PC), 0x2000056C)
T1DF0 000:640.916 - 0.013ms returns 0
T1DF0 000:640.926 JLINK_WriteReg(XPSR, 0x01000000)
T1DF0 000:640.935 - 0.013ms returns 0
T1DF0 000:640.945 JLINK_WriteReg(MSP, 0x20008000)
T1DF0 000:640.954 - 0.013ms returns 0
T1DF0 000:640.964 JLINK_WriteReg(PSP, 0x20008000)
T1DF0 000:640.973 - 0.013ms returns 0
T1DF0 000:640.983 JLINK_WriteReg(CFBP, 0x00000000)
T1DF0 000:640.992 - 0.013ms returns 0
T1DF0 000:641.003 JLINK_SetBPEx(Addr = 0x20000000, Type = 0xFFFFFFF2)
T1DF0 000:641.014 - 0.015ms returns 0x00000008
T1DF0 000:641.025 JLINK_Go()
T1DF0 000:641.047   CPU_ReadMem(4 bytes @ 0xE0001000)
T1DF0 000:646.782 - 5.830ms
T1DF0 000:646.878 JLINK_IsHalted()
T1DF0 000:647.638 - 0.772ms returns FALSE
T1DF0 000:647.661 JLINK_HasError()
T1DF0 000:653.721 JLINK_IsHalted()
T1DF0 000:658.774   CPU_ReadMem(2 bytes @ 0x20000000)
T1DF0 000:659.497 - 5.784ms returns TRUE
T1DF0 000:659.515 JLINK_ReadReg(R15 (PC))
T1DF0 000:659.530 - 0.020ms returns 0x20000000
T1DF0 000:659.544 JLINK_ClrBPEx(BPHandle = 0x00000008)
T1DF0 000:659.555 - 0.016ms returns 0x00
T1DF0 000:659.566 JLINK_ReadReg(R0)
T1DF0 000:659.575 - 0.013ms returns 0x00000000
T1DF0 000:660.159 JLINK_WriteMem(0x20000588, 0x100 Bytes, ...)
T1DF0 000:660.175   Data:  C3 F3 13 00 40 F4 80 1B 00 98 92 46 20 B1 00 23 ...
T1DF0 000:660.196   CPU_WriteMem(256 bytes @ 0x20000588)
T1DF0 000:663.454 - 3.371ms returns 0x100
T1DF0 000:663.552 JLINK_HasError()
T1DF0 000:663.572 JLINK_WriteReg(R0, 0x02028100)
T1DF0 000:663.608 - 0.040ms returns 0
T1DF0 000:663.620 JLINK_WriteReg(R1, 0x00000100)
T1DF0 000:663.699 - 0.084ms returns 0
T1DF0 000:663.713 JLINK_WriteReg(R2, 0x20000588)
T1DF0 000:663.722 - 0.014ms returns 0
T1DF0 000:663.733 JLINK_WriteReg(R3, 0x00000000)
T1DF0 000:663.742 - 0.013ms returns 0
T1DF0 000:663.753 JLINK_WriteReg(R4, 0x00000000)
T1DF0 000:663.762 - 0.013ms returns 0
T1DF0 000:663.773 JLINK_WriteReg(R5, 0x00000000)
T1DF0 000:663.782 - 0.013ms returns 0
T1DF0 000:663.792 JLINK_WriteReg(R6, 0x00000000)
T1DF0 000:663.801 - 0.013ms returns 0
T1DF0 000:663.811 JLINK_WriteReg(R7, 0x00000000)
T1DF0 000:663.820 - 0.013ms returns 0
T1DF0 000:663.830 JLINK_WriteReg(R8, 0x00000000)
T1DF0 000:663.840 - 0.013ms returns 0
T1DF0 000:663.850 JLINK_WriteReg(R9, 0x20000584)
T1DF0 000:663.859 - 0.012ms returns 0
T1DF0 000:663.869 JLINK_WriteReg(R10, 0x00000000)
T1DF0 000:663.878 - 0.013ms returns 0
T1DF0 000:663.888 JLINK_WriteReg(R11, 0x00000000)
T1DF0 000:663.897 - 0.013ms returns 0
T1DF0 000:663.908 JLINK_WriteReg(R12, 0x00000000)
T1DF0 000:663.916 - 0.012ms returns 0
T1DF0 000:663.927 JLINK_WriteReg(R13 (SP), 0x20008000)
T1DF0 000:663.938 - 0.015ms returns 0
T1DF0 000:663.949 JLINK_WriteReg(R14, 0x20000001)
T1DF0 000:663.958 - 0.013ms returns 0
T1DF0 000:663.968 JLINK_WriteReg(R15 (PC), 0x2000056C)
T1DF0 000:663.977 - 0.013ms returns 0
T1DF0 000:663.988 JLINK_WriteReg(XPSR, 0x01000000)
T1DF0 000:663.996 - 0.013ms returns 0
T1DF0 000:664.007 JLINK_WriteReg(MSP, 0x20008000)
T1DF0 000:664.017 - 0.013ms returns 0
T1DF0 000:664.026 JLINK_WriteReg(PSP, 0x20008000)
T1DF0 000:664.035 - 0.013ms returns 0
T1DF0 000:664.046 JLINK_WriteReg(CFBP, 0x00000000)
T1DF0 000:664.055 - 0.013ms returns 0
T1DF0 000:664.065 JLINK_SetBPEx(Addr = 0x20000000, Type = 0xFFFFFFF2)
T1DF0 000:664.082 - 0.021ms returns 0x00000009
T1DF0 000:664.094 JLINK_Go()
T1DF0 000:664.133   CPU_ReadMem(4 bytes @ 0xE0001000)
T1DF0 000:669.877 - 5.804ms
T1DF0 000:669.913 JLINK_IsHalted()
T1DF0 000:670.661 - 0.763ms returns FALSE
T1DF0 000:670.690 JLINK_HasError()
T1DF0 000:678.660 JLINK_IsHalted()
T1DF0 000:683.651   CPU_ReadMem(2 bytes @ 0x20000000)
T1DF0 000:684.381 - 5.750ms returns TRUE
T1DF0 000:684.428 JLINK_ReadReg(R15 (PC))
T1DF0 000:684.449 - 0.026ms returns 0x20000000
T1DF0 000:684.462 JLINK_ClrBPEx(BPHandle = 0x00000009)
T1DF0 000:684.472 - 0.014ms returns 0x00
T1DF0 000:684.483 JLINK_ReadReg(R0)
T1DF0 000:684.492 - 0.013ms returns 0x00000000
T1DF0 000:685.417 JLINK_WriteMem(0x20000588, 0x100 Bytes, ...)
T1DF0 000:685.436   Data:  81 F0 00 41 58 E7 2D E9 FE 4F 81 EA 03 04 04 F0 ...
T1DF0 000:685.461   CPU_WriteMem(256 bytes @ 0x20000588)
T1DF0 000:688.736 - 3.330ms returns 0x100
T1DF0 000:688.759 JLINK_HasError()
T1DF0 000:688.772 JLINK_WriteReg(R0, 0x02028200)
T1DF0 000:688.785 - 0.017ms returns 0
T1DF0 000:688.795 JLINK_WriteReg(R1, 0x00000100)
T1DF0 000:688.805 - 0.013ms returns 0
T1DF0 000:688.815 JLINK_WriteReg(R2, 0x20000588)
T1DF0 000:688.824 - 0.013ms returns 0
T1DF0 000:688.834 JLINK_WriteReg(R3, 0x00000000)
T1DF0 000:688.843 - 0.013ms returns 0
T1DF0 000:688.853 JLINK_WriteReg(R4, 0x00000000)
T1DF0 000:688.862 - 0.013ms returns 0
T1DF0 000:688.872 JLINK_WriteReg(R5, 0x00000000)
T1DF0 000:688.881 - 0.012ms returns 0
T1DF0 000:688.891 JLINK_WriteReg(R6, 0x00000000)
T1DF0 000:688.900 - 0.012ms returns 0
T1DF0 000:688.910 JLINK_WriteReg(R7, 0x00000000)
T1DF0 000:688.918 - 0.012ms returns 0
T1DF0 000:688.929 JLINK_WriteReg(R8, 0x00000000)
T1DF0 000:688.937 - 0.012ms returns 0
T1DF0 000:688.948 JLINK_WriteReg(R9, 0x20000584)
T1DF0 000:688.956 - 0.012ms returns 0
T1DF0 000:688.966 JLINK_WriteReg(R10, 0x00000000)
T1DF0 000:688.975 - 0.013ms returns 0
T1DF0 000:688.985 JLINK_WriteReg(R11, 0x00000000)
T1DF0 000:688.994 - 0.013ms returns 0
T1DF0 000:689.004 JLINK_WriteReg(R12, 0x00000000)
T1DF0 000:689.013 - 0.012ms returns 0
T1DF0 000:689.023 JLINK_WriteReg(R13 (SP), 0x20008000)
T1DF0 000:689.033 - 0.014ms returns 0
T1DF0 000:689.043 JLINK_WriteReg(R14, 0x20000001)
T1DF0 000:689.052 - 0.013ms returns 0
T1DF0 000:689.062 JLINK_WriteReg(R15 (PC), 0x2000056C)
T1DF0 000:689.071 - 0.013ms returns 0
T1DF0 000:689.081 JLINK_WriteReg(XPSR, 0x01000000)
T1DF0 000:689.090 - 0.013ms returns 0
T1DF0 000:689.100 JLINK_WriteReg(MSP, 0x20008000)
T1DF0 000:689.109 - 0.013ms returns 0
T1DF0 000:689.119 JLINK_WriteReg(PSP, 0x20008000)
T1DF0 000:689.128 - 0.013ms returns 0
T1DF0 000:689.138 JLINK_WriteReg(CFBP, 0x00000000)
T1DF0 000:689.147 - 0.012ms returns 0
T1DF0 000:689.157 JLINK_SetBPEx(Addr = 0x20000000, Type = 0xFFFFFFF2)
T1DF0 000:689.167 - 0.014ms returns 0x0000000A
T1DF0 000:689.177 JLINK_Go()
T1DF0 000:689.196   CPU_ReadMem(4 bytes @ 0xE0001000)
T1DF0 000:694.750 - 5.592ms
T1DF0 000:694.782 JLINK_IsHalted()
T1DF0 000:695.521 - 0.747ms returns FALSE
T1DF0 000:695.539 JLINK_HasError()
T1DF0 000:695.658 JLINK_IsHalted()
T1DF0 000:700.671   CPU_ReadMem(2 bytes @ 0x20000000)
T1DF0 000:701.397 - 5.746ms returns TRUE
T1DF0 000:701.417 JLINK_ReadReg(R15 (PC))
T1DF0 000:701.430 - 0.018ms returns 0x20000000
T1DF0 000:701.443 JLINK_ClrBPEx(BPHandle = 0x0000000A)
T1DF0 000:701.453 - 0.013ms returns 0x00
T1DF0 000:701.465 JLINK_ReadReg(R0)
T1DF0 000:701.474 - 0.013ms returns 0x00000000
T1DF0 000:702.064 JLINK_WriteMem(0x20000588, 0x100 Bytes, ...)
T1DF0 000:702.079   Data:  23 F0 00 41 50 EA 05 02 20 D0 54 EA 01 02 1D D0 ...
T1DF0 000:702.100   CPU_WriteMem(256 bytes @ 0x20000588)
T1DF0 000:705.258 - 3.215ms returns 0x100
T1DF0 000:705.291 JLINK_HasError()
T1DF0 000:705.304 JLINK_WriteReg(R0, 0x02028300)
T1DF0 000:705.319 - 0.019ms returns 0
T1DF0 000:705.330 JLINK_WriteReg(R1, 0x00000100)
T1DF0 000:705.339 - 0.013ms returns 0
T1DF0 000:705.349 JLINK_WriteReg(R2, 0x20000588)
T1DF0 000:705.358 - 0.013ms returns 0
T1DF0 000:705.369 JLINK_WriteReg(R3, 0x00000000)
T1DF0 000:705.377 - 0.012ms returns 0
T1DF0 000:705.388 JLINK_WriteReg(R4, 0x00000000)
T1DF0 000:705.397 - 0.013ms returns 0
T1DF0 000:705.412 JLINK_WriteReg(R5, 0x00000000)
T1DF0 000:705.425 - 0.016ms returns 0
T1DF0 000:705.436 JLINK_WriteReg(R6, 0x00000000)
T1DF0 000:705.444 - 0.013ms returns 0
T1DF0 000:705.455 JLINK_WriteReg(R7, 0x00000000)
T1DF0 000:705.463 - 0.013ms returns 0
T1DF0 000:705.474 JLINK_WriteReg(R8, 0x00000000)
T1DF0 000:705.483 - 0.013ms returns 0
T1DF0 000:705.493 JLINK_WriteReg(R9, 0x20000584)
T1DF0 000:705.502 - 0.012ms returns 0
T1DF0 000:705.512 JLINK_WriteReg(R10, 0x00000000)
T1DF0 000:705.521 - 0.013ms returns 0
T1DF0 000:705.531 JLINK_WriteReg(R11, 0x00000000)
T1DF0 000:705.540 - 0.013ms returns 0
T1DF0 000:705.550 JLINK_WriteReg(R12, 0x00000000)
T1DF0 000:705.559 - 0.013ms returns 0
T1DF0 000:705.569 JLINK_WriteReg(R13 (SP), 0x20008000)
T1DF0 000:705.579 - 0.014ms returns 0
T1DF0 000:705.589 JLINK_WriteReg(R14, 0x20000001)
T1DF0 000:705.598 - 0.013ms returns 0
T1DF0 000:705.609 JLINK_WriteReg(R15 (PC), 0x2000056C)
T1DF0 000:705.618 - 0.013ms returns 0
T1DF0 000:705.629 JLINK_WriteReg(XPSR, 0x01000000)
T1DF0 000:705.639 - 0.013ms returns 0
T1DF0 000:705.648 JLINK_WriteReg(MSP, 0x20008000)
T1DF0 000:705.658 - 0.013ms returns 0
T1DF0 000:705.667 JLINK_WriteReg(PSP, 0x20008000)
T1DF0 000:705.676 - 0.013ms returns 0
T1DF0 000:705.686 JLINK_WriteReg(CFBP, 0x00000000)
T1DF0 000:705.695 - 0.013ms returns 0
T1DF0 000:705.706 JLINK_SetBPEx(Addr = 0x20000000, Type = 0xFFFFFFF2)
T1DF0 000:705.716 - 0.014ms returns 0x0000000B
T1DF0 000:705.727 JLINK_Go()
T1DF0 000:705.748   CPU_ReadMem(4 bytes @ 0xE0001000)
T1DF0 000:711.270 - 5.551ms
T1DF0 000:711.289 JLINK_IsHalted()
T1DF0 000:712.021 - 0.739ms returns FALSE
T1DF0 000:712.038 JLINK_HasError()
T1DF0 000:712.648 JLINK_IsHalted()
T1DF0 000:718.025   CPU_ReadMem(2 bytes @ 0x20000000)
T1DF0 000:718.730 - 6.092ms returns TRUE
T1DF0 000:718.753 JLINK_ReadReg(R15 (PC))
T1DF0 000:718.769 - 0.021ms returns 0x20000000
T1DF0 000:718.783 JLINK_ClrBPEx(BPHandle = 0x0000000B)
T1DF0 000:718.793 - 0.014ms returns 0x00
T1DF0 000:718.805 JLINK_ReadReg(R0)
T1DF0 000:718.813 - 0.013ms returns 0x00000000
T1DF0 000:719.565 JLINK_WriteMem(0x20000588, 0x100 Bytes, ...)
T1DF0 000:719.587   Data:  9D 42 05 D3 03 FA 02 F5 49 1B 04 FA 02 F5 28 44 ...
T1DF0 000:719.613   CPU_WriteMem(256 bytes @ 0x20000588)
T1DF0 000:723.424 - 3.898ms returns 0x100
T1DF0 000:723.482 JLINK_HasError()
T1DF0 000:723.498 JLINK_WriteReg(R0, 0x02028400)
T1DF0 000:723.520 - 0.026ms returns 0
T1DF0 000:723.531 JLINK_WriteReg(R1, 0x00000100)
T1DF0 000:723.540 - 0.013ms returns 0
T1DF0 000:723.550 JLINK_WriteReg(R2, 0x20000588)
T1DF0 000:723.559 - 0.013ms returns 0
T1DF0 000:723.569 JLINK_WriteReg(R3, 0x00000000)
T1DF0 000:723.579 - 0.014ms returns 0
T1DF0 000:723.590 JLINK_WriteReg(R4, 0x00000000)
T1DF0 000:723.600 - 0.013ms returns 0
T1DF0 000:723.610 JLINK_WriteReg(R5, 0x00000000)
T1DF0 000:723.620 - 0.022ms returns 0
T1DF0 000:723.639 JLINK_WriteReg(R6, 0x00000000)
T1DF0 000:723.653 - 0.019ms returns 0
T1DF0 000:723.665 JLINK_WriteReg(R7, 0x00000000)
T1DF0 000:723.674 - 0.013ms returns 0
T1DF0 000:723.685 JLINK_WriteReg(R8, 0x00000000)
T1DF0 000:723.694 - 0.013ms returns 0
T1DF0 000:723.705 JLINK_WriteReg(R9, 0x20000584)
T1DF0 000:723.715 - 0.014ms returns 0
T1DF0 000:723.725 JLINK_WriteReg(R10, 0x00000000)
T1DF0 000:723.734 - 0.013ms returns 0
T1DF0 000:723.745 JLINK_WriteReg(R11, 0x00000000)
T1DF0 000:723.754 - 0.013ms returns 0
T1DF0 000:723.764 JLINK_WriteReg(R12, 0x00000000)
T1DF0 000:723.773 - 0.012ms returns 0
T1DF0 000:723.783 JLINK_WriteReg(R13 (SP), 0x20008000)
T1DF0 000:723.797 - 0.019ms returns 0
T1DF0 000:723.809 JLINK_WriteReg(R14, 0x20000001)
T1DF0 000:723.819 - 0.013ms returns 0
T1DF0 000:723.829 JLINK_WriteReg(R15 (PC), 0x2000056C)
T1DF0 000:723.839 - 0.013ms returns 0
T1DF0 000:723.850 JLINK_WriteReg(XPSR, 0x01000000)
T1DF0 000:723.859 - 0.015ms returns 0
T1DF0 000:723.874 JLINK_WriteReg(MSP, 0x20008000)
T1DF0 000:723.887 - 0.020ms returns 0
T1DF0 000:723.902 JLINK_WriteReg(PSP, 0x20008000)
T1DF0 000:723.911 - 0.020ms returns 0
T1DF0 000:723.932 JLINK_WriteReg(CFBP, 0x00000000)
T1DF0 000:723.941 - 0.013ms returns 0
T1DF0 000:723.951 JLINK_SetBPEx(Addr = 0x20000000, Type = 0xFFFFFFF2)
T1DF0 000:723.962 - 0.015ms returns 0x0000000C
T1DF0 000:723.973 JLINK_Go()
T1DF0 000:723.994   CPU_ReadMem(4 bytes @ 0xE0001000)
T1DF0 000:729.894 - 5.940ms
T1DF0 000:729.928 JLINK_IsHalted()
T1DF0 000:730.646 - 0.725ms returns FALSE
T1DF0 000:730.665 JLINK_HasError()
T1DF0 000:731.681 JLINK_IsHalted()
T1DF0 000:736.397   CPU_ReadMem(2 bytes @ 0x20000000)
T1DF0 000:737.128 - 5.455ms returns TRUE
T1DF0 000:737.148 JLINK_ReadReg(R15 (PC))
T1DF0 000:737.162 - 0.017ms returns 0x20000000
T1DF0 000:737.173 JLINK_ClrBPEx(BPHandle = 0x0000000C)
T1DF0 000:737.183 - 0.013ms returns 0x00
T1DF0 000:737.193 JLINK_ReadReg(R0)
T1DF0 000:737.202 - 0.013ms returns 0x00000000
T1DF0 000:737.788 JLINK_WriteMem(0x20000588, 0x100 Bytes, ...)
T1DF0 000:737.803   Data:  41 EA 0B 01 53 46 5A 46 08 43 13 D0 11 46 53 EA ...
T1DF0 000:737.825   CPU_WriteMem(256 bytes @ 0x20000588)
T1DF0 000:741.145 - 3.364ms returns 0x100
T1DF0 000:741.163 JLINK_HasError()
T1DF0 000:741.177 JLINK_WriteReg(R0, 0x02028500)
T1DF0 000:741.189 - 0.016ms returns 0
T1DF0 000:741.200 JLINK_WriteReg(R1, 0x00000100)
T1DF0 000:741.208 - 0.013ms returns 0
T1DF0 000:741.219 JLINK_WriteReg(R2, 0x20000588)
T1DF0 000:741.228 - 0.013ms returns 0
T1DF0 000:741.238 JLINK_WriteReg(R3, 0x00000000)
T1DF0 000:741.247 - 0.013ms returns 0
T1DF0 000:741.257 JLINK_WriteReg(R4, 0x00000000)
T1DF0 000:741.266 - 0.013ms returns 0
T1DF0 000:741.276 JLINK_WriteReg(R5, 0x00000000)
T1DF0 000:741.285 - 0.013ms returns 0
T1DF0 000:741.295 JLINK_WriteReg(R6, 0x00000000)
T1DF0 000:741.304 - 0.013ms returns 0
T1DF0 000:741.314 JLINK_WriteReg(R7, 0x00000000)
T1DF0 000:741.323 - 0.013ms returns 0
T1DF0 000:741.333 JLINK_WriteReg(R8, 0x00000000)
T1DF0 000:741.342 - 0.012ms returns 0
T1DF0 000:741.352 JLINK_WriteReg(R9, 0x20000584)
T1DF0 000:741.361 - 0.012ms returns 0
T1DF0 000:741.371 JLINK_WriteReg(R10, 0x00000000)
T1DF0 000:741.380 - 0.012ms returns 0
T1DF0 000:741.390 JLINK_WriteReg(R11, 0x00000000)
T1DF0 000:741.399 - 0.012ms returns 0
T1DF0 000:741.408 JLINK_WriteReg(R12, 0x00000000)
T1DF0 000:741.418 - 0.013ms returns 0
T1DF0 000:741.427 JLINK_WriteReg(R13 (SP), 0x20008000)
T1DF0 000:741.437 - 0.013ms returns 0
T1DF0 000:741.447 JLINK_WriteReg(R14, 0x20000001)
T1DF0 000:741.456 - 0.013ms returns 0
T1DF0 000:741.466 JLINK_WriteReg(R15 (PC), 0x2000056C)
T1DF0 000:741.475 - 0.013ms returns 0
T1DF0 000:741.485 JLINK_WriteReg(XPSR, 0x01000000)
T1DF0 000:741.494 - 0.013ms returns 0
T1DF0 000:741.504 JLINK_WriteReg(MSP, 0x20008000)
T1DF0 000:741.513 - 0.012ms returns 0
T1DF0 000:741.523 JLINK_WriteReg(PSP, 0x20008000)
T1DF0 000:741.531 - 0.012ms returns 0
T1DF0 000:741.541 JLINK_WriteReg(CFBP, 0x00000000)
T1DF0 000:741.550 - 0.012ms returns 0
T1DF0 000:741.560 JLINK_SetBPEx(Addr = 0x20000000, Type = 0xFFFFFFF2)
T1DF0 000:741.570 - 0.013ms returns 0x0000000D
T1DF0 000:741.581 JLINK_Go()
T1DF0 000:741.598   CPU_ReadMem(4 bytes @ 0xE0001000)
T1DF0 000:747.405 - 5.846ms
T1DF0 000:747.438 JLINK_IsHalted()
T1DF0 000:748.120 - 0.689ms returns FALSE
T1DF0 000:748.138 JLINK_HasError()
T1DF0 000:748.673 JLINK_IsHalted()
T1DF0 000:753.727   CPU_ReadMem(2 bytes @ 0x20000000)
T1DF0 000:754.520 - 5.855ms returns TRUE
T1DF0 000:754.539 JLINK_ReadReg(R15 (PC))
T1DF0 000:754.552 - 0.018ms returns 0x20000000
T1DF0 000:754.564 JLINK_ClrBPEx(BPHandle = 0x0000000D)
T1DF0 000:754.573 - 0.013ms returns 0x00
T1DF0 000:754.584 JLINK_ReadReg(R0)
T1DF0 000:754.593 - 0.013ms returns 0x00000000
T1DF0 000:755.180 JLINK_WriteMem(0x20000588, 0x100 Bytes, ...)
T1DF0 000:755.195   Data:  00 EB 40 01 45 F2 08 70 C2 F2 00 00 00 EB C1 00 ...
T1DF0 000:755.216   CPU_WriteMem(256 bytes @ 0x20000588)
T1DF0 000:758.380 - 3.208ms returns 0x100
T1DF0 000:758.400 JLINK_HasError()
T1DF0 000:758.412 JLINK_WriteReg(R0, 0x02028600)
T1DF0 000:758.424 - 0.016ms returns 0
T1DF0 000:758.436 JLINK_WriteReg(R1, 0x00000100)
T1DF0 000:758.453 - 0.021ms returns 0
T1DF0 000:758.465 JLINK_WriteReg(R2, 0x20000588)
T1DF0 000:758.474 - 0.013ms returns 0
T1DF0 000:758.484 JLINK_WriteReg(R3, 0x00000000)
T1DF0 000:758.493 - 0.013ms returns 0
T1DF0 000:758.505 JLINK_WriteReg(R4, 0x00000000)
T1DF0 000:758.513 - 0.013ms returns 0
T1DF0 000:758.524 JLINK_WriteReg(R5, 0x00000000)
T1DF0 000:758.532 - 0.013ms returns 0
T1DF0 000:758.544 JLINK_WriteReg(R6, 0x00000000)
T1DF0 000:758.552 - 0.012ms returns 0
T1DF0 000:758.564 JLINK_WriteReg(R7, 0x00000000)
T1DF0 000:758.573 - 0.013ms returns 0
T1DF0 000:758.584 JLINK_WriteReg(R8, 0x00000000)
T1DF0 000:758.594 - 0.013ms returns 0
T1DF0 000:758.604 JLINK_WriteReg(R9, 0x20000584)
T1DF0 000:758.613 - 0.012ms returns 0
T1DF0 000:758.627 JLINK_WriteReg(R10, 0x00000000)
T1DF0 000:758.636 - 0.013ms returns 0
T1DF0 000:758.646 JLINK_WriteReg(R11, 0x00000000)
T1DF0 000:758.655 - 0.013ms returns 0
T1DF0 000:758.666 JLINK_WriteReg(R12, 0x00000000)
T1DF0 000:758.675 - 0.012ms returns 0
T1DF0 000:758.686 JLINK_WriteReg(R13 (SP), 0x20008000)
T1DF0 000:758.696 - 0.014ms returns 0
T1DF0 000:758.708 JLINK_WriteReg(R14, 0x20000001)
T1DF0 000:758.717 - 0.013ms returns 0
T1DF0 000:758.727 JLINK_WriteReg(R15 (PC), 0x2000056C)
T1DF0 000:758.736 - 0.013ms returns 0
T1DF0 000:758.747 JLINK_WriteReg(XPSR, 0x01000000)
T1DF0 000:758.756 - 0.013ms returns 0
T1DF0 000:758.766 JLINK_WriteReg(MSP, 0x20008000)
T1DF0 000:758.775 - 0.013ms returns 0
T1DF0 000:758.786 JLINK_WriteReg(PSP, 0x20008000)
T1DF0 000:758.795 - 0.012ms returns 0
T1DF0 000:758.806 JLINK_WriteReg(CFBP, 0x00000000)
T1DF0 000:758.815 - 0.013ms returns 0
T1DF0 000:758.827 JLINK_SetBPEx(Addr = 0x20000000, Type = 0xFFFFFFF2)
T1DF0 000:758.837 - 0.014ms returns 0x0000000E
T1DF0 000:758.849 JLINK_Go()
T1DF0 000:758.866   CPU_ReadMem(4 bytes @ 0xE0001000)
T1DF0 000:764.527 - 5.699ms
